CITIFILE A.01.01
#Momentum: B.12.00.024 (*) built: Jan 14 2016 
#Momentum Date and Time: Mon Mar 30 18:01:33 2020

NAME PortSet1


CONSTANT NBR_OF_PORTS 10

VAR freq MAG 2

DATA GAMMA_1[1] RI
DATA Z0_1[1,1] RI
DATA LAMBADAI_1[1,1] RI

VAR_LIST_BEGIN
	 9244492.989
	 3000000000
VAR_LIST_END

BEGIN
	 0 ,	 0 
	 0 ,	 0 
END
BEGIN
	 50 ,	 0 
	 50 ,	 0 
END
BEGIN
	 0 ,	 0 
	 0 ,	 0 
END
CITIFILE A.01.01
NAME PortSet2

VAR freq MAG 2

DATA GAMMA_2[1] RI
DATA Z0_2[1,1] RI
DATA LAMBADAI_2[1,1] RI

VAR_LIST_BEGIN
	 9244492.989
	 3000000000
VAR_LIST_END

BEGIN
	 0 ,	 0 
	 0 ,	 0 
END
BEGIN
	 50 ,	 0 
	 50 ,	 0 
END
BEGIN
	 0 ,	 0 
	 0 ,	 0 
END
CITIFILE A.01.01
NAME PortSet3/TwoP0_Dsolver_data/first_odd_mode_is_1/most_even_mode_is_1/PMLG4/LS0

VAR freq MAG 13

DATA GAMMA_3[1] RI
DATA Z0_3[1,1] RI
DATA LAMBADAI_3[1,1] RI
DATA Zcir_3[1,1] RI
DATA Ycir_3[1,1] RI

VAR_LIST_BEGIN
	 9244492.989
	 9336937.919
	 9429382.849
	 9521827.779
	 19043655.56
	 38087311.11
	 76174622.23
	 152349244.5
	 304698488.9
	 609396977.8
	 1218793956
	 2437587911
	 3000000000
VAR_LIST_END

BEGIN
	-0,	 0.326268847
	-0,	 0.329531536
	-0,	 0.332794225
	-0,	 0.336056914
	-0,	 0.6721139998
	-0,	 1.344229262
	-0,	 2.688466747
	-0,	 5.37699212
	-0,	 10.7543899
	-0,	 21.51149085
	-0,	 43.04049911
	-0,	 86.18872662
	-0,	 106.1511015
END
BEGIN
	 54.417230645416915 ,	 0 
	 54.417230618826736 ,	 0 
	 54.417230591618313 ,	 0 
	 54.417230564368133 ,	 0 
	 54.417227502803762 ,	 0 
	 54.417218584772314 ,	 0 
	 54.417176392291211 ,	 0 
	 54.417060835701811 ,	 0 
	 54.416779939242375 ,	 0 
	 54.416301197334768 ,	 0 
	 54.416983825856747 ,	 0 
	 54.429637165649936 ,	 0 
	 54.441782223741008 ,	 0 
END
BEGIN
	 0,	 0.326268847
	 0,	 0.329531536
	 0,	 0.332794225
	 0,	 0.336056914
	 0,	 0.6721139998
	 0,	 1.344229262
	 0,	 2.688466747
	 0,	 5.37699212
	 0,	 10.7543899
	 0,	 21.51149085
	 0,	 43.04049911
	 0,	 86.18872662
	 0,	 106.1511015
END
BEGIN
	 5.7698199957458e-025 ,	 8.11369074986861e-010 
	 -5.30204530831033e-024 ,	 8.11369075922626e-010 
	 7.4444848133919e-024 ,	 8.11369076854993e-010 
	 -2.09405129771577e-023 ,	 8.11369077801148e-010 
	 -1.51582852795764e-022 ,	 8.11369239487417e-010 
	 7.491346650588e-022 ,	 8.11369868260586e-010 
	 -2.55926993387009e-022 ,	 8.11371721062104e-010 
	 -1.38130920802702e-020 ,	 8.11378844626873e-010 
	 -5.76783875171571e-020 ,	 8.11405262797135e-010 
	 -1.44635274935313e-019 ,	 8.11500396188339e-010 
	 -3.62264352696026e-019 ,	 8.1184099404585e-010 
	 1.20636750785939e-018 ,	 8.13046004386711e-010 
	 6.47868488779884e-019 ,	 8.13813871022035e-010 
END
BEGIN
	 -2.76535344879371e-023 ,	 3.88872143570132e-008 
	 2.54115887569038e-022 ,	 3.88872144398658e-008 
	 -3.56798510336368e-022 ,	 3.88872145234391e-008 
	 1.00363477536708e-021 ,	 3.8887214607733e-008 
	 7.26504836340504e-021 ,	 3.88872267326795e-008 
	 -3.59044658141495e-020 ,	 3.88872696143445e-008 
	 1.22660673212462e-020 ,	 3.88874187180926e-008 
	 6.62036601613876e-019 ,	 3.88879252955549e-008 
	 2.76444967263172e-018 ,	 3.88895929596499e-008 
	 6.93230152631985e-018 ,	 3.88948369450093e-008 
	 1.73627264889928e-017 ,	 3.89101854136827e-008 
	 -5.77923039996041e-017 ,	 3.89498237850892e-008 
	 -3.10229751554301e-017 ,	 3.89692166529167e-008 
END
CITIFILE A.01.01
NAME PortSet4/TwoP0_Dsolver_data/first_odd_mode_is_1/most_even_mode_is_1/PMLG4/LS0

VAR freq MAG 13

DATA GAMMA_4[1] RI
DATA Z0_4[1,1] RI
DATA LAMBADAI_4[1,1] RI
DATA Zcir_4[1,1] RI
DATA Ycir_4[1,1] RI

VAR_LIST_BEGIN
	 9244492.989
	 9336937.919
	 9429382.849
	 9521827.779
	 19043655.56
	 38087311.11
	 76174622.23
	 152349244.5
	 304698488.9
	 609396977.8
	 1218793956
	 2437587911
	 3000000000
VAR_LIST_END

BEGIN
	-0,	 0.326268847
	-0,	 0.329531536
	-0,	 0.332794225
	-0,	 0.336056914
	-0,	 0.6721139998
	-0,	 1.344229262
	-0,	 2.688466747
	-0,	 5.37699212
	-0,	 10.7543899
	-0,	 21.51149085
	-0,	 43.04049911
	-0,	 86.18872662
	-0,	 106.1511015
END
BEGIN
	 54.417230645416915 ,	 0 
	 54.417230618826736 ,	 0 
	 54.417230591618313 ,	 0 
	 54.417230564368133 ,	 0 
	 54.417227502803762 ,	 0 
	 54.417218584772314 ,	 0 
	 54.417176392291211 ,	 0 
	 54.417060835701811 ,	 0 
	 54.416779939242375 ,	 0 
	 54.416301197334768 ,	 0 
	 54.416983825856747 ,	 0 
	 54.429637165649936 ,	 0 
	 54.441782223741008 ,	 0 
END
BEGIN
	 0,	 0.326268847
	 0,	 0.329531536
	 0,	 0.332794225
	 0,	 0.336056914
	 0,	 0.6721139998
	 0,	 1.344229262
	 0,	 2.688466747
	 0,	 5.37699212
	 0,	 10.7543899
	 0,	 21.51149085
	 0,	 43.04049911
	 0,	 86.18872662
	 0,	 106.1511015
END
BEGIN
	 5.7698199957458e-025 ,	 8.11369074986861e-010 
	 -5.30204530831033e-024 ,	 8.11369075922626e-010 
	 7.4444848133919e-024 ,	 8.11369076854993e-010 
	 -2.09405129771577e-023 ,	 8.11369077801148e-010 
	 -1.51582852795764e-022 ,	 8.11369239487417e-010 
	 7.491346650588e-022 ,	 8.11369868260586e-010 
	 -2.55926993387009e-022 ,	 8.11371721062104e-010 
	 -1.38130920802702e-020 ,	 8.11378844626873e-010 
	 -5.76783875171571e-020 ,	 8.11405262797135e-010 
	 -1.44635274935313e-019 ,	 8.11500396188339e-010 
	 -3.62264352696026e-019 ,	 8.1184099404585e-010 
	 1.20636750785939e-018 ,	 8.13046004386711e-010 
	 6.47868488779884e-019 ,	 8.13813871022035e-010 
END
BEGIN
	 -2.76535344879371e-023 ,	 3.88872143570132e-008 
	 2.54115887569038e-022 ,	 3.88872144398658e-008 
	 -3.56798510336368e-022 ,	 3.88872145234391e-008 
	 1.00363477536708e-021 ,	 3.8887214607733e-008 
	 7.26504836340504e-021 ,	 3.88872267326795e-008 
	 -3.59044658141495e-020 ,	 3.88872696143445e-008 
	 1.22660673212462e-020 ,	 3.88874187180926e-008 
	 6.62036601613876e-019 ,	 3.88879252955549e-008 
	 2.76444967263172e-018 ,	 3.88895929596499e-008 
	 6.93230152631985e-018 ,	 3.88948369450093e-008 
	 1.73627264889928e-017 ,	 3.89101854136827e-008 
	 -5.77923039996041e-017 ,	 3.89498237850892e-008 
	 -3.10229751554301e-017 ,	 3.89692166529167e-008 
END
CITIFILE A.01.01
NAME PortSet5/TwoP0_Dsolver_data/first_odd_mode_is_1/most_even_mode_is_1/PMLG4/LS0

VAR freq MAG 13

DATA GAMMA_5[1] RI
DATA Z0_5[1,1] RI
DATA LAMBADAI_5[1,1] RI
DATA Zcir_5[1,1] RI
DATA Ycir_5[1,1] RI

VAR_LIST_BEGIN
	 9244492.989
	 9336937.919
	 9429382.849
	 9521827.779
	 19043655.56
	 38087311.11
	 76174622.23
	 152349244.5
	 304698488.9
	 609396977.8
	 1218793956
	 2437587911
	 3000000000
VAR_LIST_END

BEGIN
	-0,	 0.3271414756
	-0,	 0.3304128909
	-0,	 0.3336843063
	-0,	 0.3369557216
	-0,	 0.6739116152
	-0,	 1.347824495
	-0,	 2.695657652
	-0,	 5.391376509
	-0,	 10.78317324
	-0,	 21.56915681
	-0,	 43.15644913
	-0,	 86.4242071
	-0,	 106.4433306
END
BEGIN
	 52.415454776533082 ,	 0 
	 52.415454748879355 ,	 0 
	 52.415454720981778 ,	 0 
	 52.415454704925239 ,	 0 
	 52.415450971421478 ,	 0 
	 52.415439700846179 ,	 0 
	 52.415397982730902 ,	 0 
	 52.415279226318617 ,	 0 
	 52.414972524552695 ,	 0 
	 52.414418376883582 ,	 0 
	 52.414854054999466 ,	 0 
	 52.426706692728622 ,	 0 
	 52.438356471327197 ,	 0 
END
BEGIN
	 0,	 0.3271414756
	 0,	 0.3304128909
	 0,	 0.3336843063
	 0,	 0.3369557216
	 0,	 0.6739116152
	 0,	 1.347824495
	 0,	 2.695657652
	 0,	 5.391376509
	 0,	 10.78317324
	 0,	 21.56915681
	 0,	 43.15644913
	 0,	 86.4242071
	 0,	 106.4433306
END
BEGIN
	 3.2998249591486e-023 ,	 7.83612531932069e-010 
	 -5.18395056237332e-024 ,	 7.8361253285273e-010 
	 -3.05888075749255e-023 ,	 7.83612533781367e-010 
	 -3.24865613267301e-023 ,	 7.83612534898534e-010 
	 1.30130635180021e-022 ,	 7.8361267899972e-010 
	 6.1689917649173e-022 ,	 7.8361324548515e-010 
	 -3.57786335682587e-021 ,	 7.83615140092693e-010 
	 -1.40981019997719e-020 ,	 7.83622260628328e-010 
	 -1.16178294542319e-021 ,	 7.83648213915151e-010 
	 -1.87252553949376e-019 ,	 7.83742046294101e-010 
	 7.95558742331556e-019 ,	 7.84078051540533e-010 
	 -5.32062791985921e-019 ,	 7.85266729400719e-010 
	 8.71108522520955e-019 ,	 7.86023943614918e-010 
END
BEGIN
	 -1.70464301201707e-021 ,	 4.0480317690295e-008 
	 2.6779557156862e-022 ,	 4.04803177805688e-008 
	 1.58017464061215e-021 ,	 4.04803178716314e-008 
	 1.67820992285824e-021 ,	 4.04803179541435e-008 
	 -6.72236596977735e-021 ,	 4.04803311649594e-008 
	 -3.18681593193878e-020 ,	 4.04803778372982e-008 
	 1.84827773035422e-019 ,	 4.04805401480349e-008 
	 7.28292934709581e-019 ,	 4.04810914196815e-008 
	 6.00171720164539e-020 ,	 4.04829058992603e-008 
	 9.67358525972604e-018 ,	 4.04886093489964e-008 
	 -4.10983840958952e-017 ,	 4.0505294214898e-008 
	 2.74738163120611e-017 ,	 4.05483604651295e-008 
	 -4.49609392797643e-017 ,	 4.05694283635723e-008 
END
CITIFILE A.01.01
NAME PortSet6/TwoP0_Dsolver_data/first_odd_mode_is_1/most_even_mode_is_1/PMLG4/LS0

VAR freq MAG 13

DATA GAMMA_6[1] RI
DATA Z0_6[1,1] RI
DATA LAMBADAI_6[1,1] RI
DATA Zcir_6[1,1] RI
DATA Ycir_6[1,1] RI

VAR_LIST_BEGIN
	 9244492.989
	 9336937.919
	 9429382.849
	 9521827.779
	 19043655.56
	 38087311.11
	 76174622.23
	 152349244.5
	 304698488.9
	 609396977.8
	 1218793956
	 2437587911
	 3000000000
VAR_LIST_END

BEGIN
	-0,	 0.3559666674
	-0,	 0.3595263369
	-0,	 0.3630860065
	-0,	 0.3666456762
	-0,	 0.7332922067
	-0,	 1.466590543
	-0,	 2.933221756
	-0,	 5.866716682
	-0,	 11.73518477
	-0,	 23.48097051
	-0,	 47.02066529
	-0,	 94.32410196
	-0,	 116.2513817
END
BEGIN
	 9.6019145702205542 ,	 0 
	 9.601914524061204 ,	 0 
	 9.6019144772379832 ,	 0 
	 9.6019144306893907 ,	 0 
	 9.6019078728799307 ,	 0 
	 9.6018873080166909 ,	 0 
	 9.6018187957071159 ,	 0 
	 9.6016232777256114 ,	 0 
	 9.6011330536134007 ,	 0 
	 9.600281576779798 ,	 0 
	 9.6007069578401083 ,	 0 
	 9.6124523849839729 ,	 0 
	 9.6221720300249043 ,	 0 
END
BEGIN
	 0,	 0.3559666674
	 0,	 0.3595263369
	 0,	 0.3630860065
	 0,	 0.3666456762
	 0,	 0.7332922067
	 0,	 1.466590543
	 0,	 2.933221756
	 0,	 5.866716682
	 0,	 11.73518477
	 0,	 23.48097051
	 0,	 47.02066529
	 0,	 94.32410196
	 0,	 116.2513817
END
BEGIN
	 5.93889083316345e-024 ,	 1.56197319467197e-010 
	 -8.62401585334446e-024 ,	 1.56197319958857e-010 
	 2.08803113629511e-023 ,	 1.56197320444877e-010 
	 -1.82137394056604e-023 ,	 1.56197320955947e-010 
	 -1.22610175436255e-023 ,	 1.56197396254999e-010 
	 3.91164891917607e-025 ,	 1.56197714566837e-010 
	 -7.2910046213907e-022 ,	 1.56198765787478e-010 
	 -1.45009644619605e-021 ,	 1.5620285837145e-010 
	 5.96911759142075e-021 ,	 1.56218197859136e-010 
	 1.4680462349664e-020 ,	 1.56274897198193e-010 
	 2.07119032567842e-019 ,	 1.56477246565884e-010 
	 4.12428921813609e-019 ,	 1.57139764111887e-010 
	 5.11414554258551e-019 ,	 1.57521373284575e-010 
END
BEGIN
	 -9.14220431317959e-021 ,	 2.40446886103049e-007 
	 1.32756297268759e-020 ,	 2.40446889171705e-007 
	 -3.21427151403499e-020 ,	 2.40446892264927e-007 
	 2.80378502435417e-020 ,	 2.40446895382955e-007 
	 1.88743802487501e-020 ,	 2.40447339732768e-007 
	 -6.02154471182339e-022 ,	 2.40448859696475e-007 
	 1.12238438978202e-018 ,	 2.40453909340195e-007 
	 2.23238357999207e-018 ,	 2.40470002592578e-007 
	 -9.19023070952346e-018 ,	 2.4051817665896e-007 
	 -2.26064853375602e-017 ,	 2.40648154533127e-007 
	 -3.18914919479413e-016 ,	 2.40938400832735e-007 
	 -6.33493211853703e-016 ,	 2.41367587509203e-007 
	 -7.83949531490488e-016 ,	 2.41465178802381e-007 
END
CITIFILE A.01.01
NAME PortSet7/TwoP0_Dsolver_data/first_odd_mode_is_1/most_even_mode_is_1/PMLG4/LS0

VAR freq MAG 13

DATA GAMMA_7[1] RI
DATA Z0_7[1,1] RI
DATA LAMBADAI_7[1,1] RI
DATA Zcir_7[1,1] RI
DATA Ycir_7[1,1] RI

VAR_LIST_BEGIN
	 9244492.989
	 9336937.919
	 9429382.849
	 9521827.779
	 19043655.56
	 38087311.11
	 76174622.23
	 152349244.5
	 304698488.9
	 609396977.8
	 1218793956
	 2437587911
	 3000000000
VAR_LIST_END

BEGIN
	-0,	 0.3244259906
	-0,	 0.327670251
	-0,	 0.3309145114
	-0,	 0.3341587719
	-0,	 0.6683177019
	-0,	 1.336636567
	-0,	 2.673280715
	-0,	 5.34661551
	-0,	 10.6936059
	-0,	 21.3897213
	-0,	 42.79569905
	-0,	 85.69176073
	-0,	 105.5344634
END
BEGIN
	 58.937912592534119 ,	 0 
	 58.937912568196332 ,	 0 
	 58.937912543269142 ,	 0 
	 58.937912518331153 ,	 0 
	 58.937909778873298 ,	 0 
	 58.937902028228471 ,	 0 
	 58.937863877908619 ,	 0 
	 58.937762427844341 ,	 0 
	 58.937531459869163 ,	 0 
	 58.937221038577711 ,	 0 
	 58.938461615616021 ,	 0 
	 58.952948404814968 ,	 0 
	 58.966233664244072 ,	 0 
END
BEGIN
	 0,	 0.3244259906
	 0,	 0.327670251
	 0,	 0.3309145114
	 0,	 0.3341587719
	 0,	 0.6683177019
	 0,	 1.336636567
	 0,	 2.673280715
	 0,	 5.34661551
	 0,	 10.6936059
	 0,	 21.3897213
	 0,	 42.79569905
	 0,	 85.69176073
	 0,	 105.5344634
END
BEGIN
	 -1.18859252816573e-023 ,	 8.7380956844721e-010 
	 -1.33718941444485e-023 ,	 8.73809569414358e-010 
	 3.11579817650174e-023 ,	 8.73809570378611e-010 
	 -7.78103265556541e-024 ,	 8.73809571357116e-010 
	 -3.36001436250422e-023 ,	 8.73809737582553e-010 
	 -3.62382231449422e-022 ,	 8.73810382916401e-010 
	 -1.58152126148499e-021 ,	 8.7381229530839e-010 
	 2.47168755052488e-021 ,	 8.73819629844504e-010 
	 2.58206447246197e-020 ,	 8.73846839408794e-010 
	 4.59339151778192e-020 ,	 8.73944770543866e-010 
	 -7.51173640983475e-019 ,	 8.74295277587589e-010 
	 -1.03032655591139e-018 ,	 8.75535607012247e-010 
	 7.21805685117137e-020 ,	 8.76326498711493e-010 
END
BEGIN
	 4.85629153931784e-022 ,	 3.57016716298379e-008 
	 5.46342122410812e-022 ,	 3.57016716988384e-008 
	 -1.2730371417877e-021 ,	 3.57016717684347e-008 
	 3.17913517476337e-022 ,	 3.57016718386263e-008 
	 1.37281789106858e-021 ,	 3.57016819490385e-008 
	 1.48060361626581e-020 ,	 3.5701717705693e-008 
	 6.46171066672273e-020 ,	 3.57018420606373e-008 
	 -1.00987480738961e-019 ,	 3.57022646408155e-008 
	 -1.05498055311431e-018 ,	 3.57036561948304e-008 
	 -1.8767888342306e-018 ,	 3.57080336117959e-008 
	 3.06905028344436e-017 ,	 3.57208509870128e-008 
	 4.20750934183325e-017 ,	 3.57539483426505e-008 
	 -2.94628514482895e-018 ,	 3.57701220482163e-008 
END
CITIFILE A.01.01
NAME PortSet8/TwoP0_Dsolver_data/first_odd_mode_is_1/most_even_mode_is_1/PMLG4/LS0

VAR freq MAG 13

DATA GAMMA_8[1] RI
DATA Z0_8[1,1] RI
DATA LAMBADAI_8[1,1] RI
DATA Zcir_8[1,1] RI
DATA Ycir_8[1,1] RI

VAR_LIST_BEGIN
	 9244492.989
	 9336937.919
	 9429382.849
	 9521827.779
	 19043655.56
	 38087311.11
	 76174622.23
	 152349244.5
	 304698488.9
	 609396977.8
	 1218793956
	 2437587911
	 3000000000
VAR_LIST_END

BEGIN
	-0,	 0.3265339431
	-0,	 0.3297992831
	-0,	 0.3330646231
	-0,	 0.3363299631
	-0,	 0.6726600936
	-0,	 1.345321418
	-0,	 2.690651273
	-0,	 5.381362175
	-0,	 10.76313393
	-0,	 21.52900881
	-0,	 43.07572131
	-0,	 86.26025223
	-0,	 106.2398611
END
BEGIN
	 53.800318362998929 ,	 0 
	 53.800318336085645 ,	 0 
	 53.800318308939694 ,	 0 
	 53.800318281552343 ,	 0 
	 53.80031466257315 ,	 0 
	 53.800303742907609 ,	 0 
	 53.800263332841809 ,	 0 
	 53.800149109454992 ,	 0 
	 53.799857979781365 ,	 0 
	 53.799356040000966 ,	 0 
	 53.799962486206333 ,	 0 
	 53.812368054497377 ,	 0 
	 53.824359648984242 ,	 0 
END
BEGIN
	 0,	 0.3265339431
	 0,	 0.3297992831
	 0,	 0.3330646231
	 0,	 0.3363299631
	 0,	 0.6726600936
	 0,	 1.345321418
	 0,	 2.690651273
	 0,	 5.381362175
	 0,	 10.76313393
	 0,	 21.52900881
	 0,	 43.07572131
	 0,	 86.26025223
	 0,	 106.2398611
END
BEGIN
	 2.0788147498483e-023 ,	 8.02822590695952e-010 
	 1.58969206270572e-023 ,	 8.02822591627149e-010 
	 -2.86354766385514e-023 ,	 8.02822592566508e-010 
	 3.55451994747077e-023 ,	 8.02822593513767e-010 
	 -1.69222968041439e-022 ,	 8.02822739269402e-010 
	 -7.04014037101657e-022 ,	 8.02823310839528e-010 
	 -2.07958415150632e-021 ,	 8.02825225237572e-010 
	 4.19246615914834e-021 ,	 8.0283241662306e-010 
	 -4.24898844278389e-020 ,	 8.02858624412935e-010 
	 -2.83748691835086e-019 ,	 8.02953361076836e-010 
	 8.13879013887745e-019 ,	 8.03292557534827e-010 
	 3.06418052974066e-018 ,	 8.04492581987238e-010 
	 8.99117727753078e-019 ,	 8.05257196935399e-010 
END
BEGIN
	 -1.01931250985202e-021 ,	 3.93650809889581e-008 
	 -7.79479272055305e-022 ,	 3.93650810740021e-008 
	 1.40409334809841e-021 ,	 3.93650811597868e-008 
	 -1.74290020801992e-021 ,	 3.93650812463121e-008 
	 8.29757014277712e-021 ,	 3.93650936891325e-008 
	 3.45201853700047e-020 ,	 3.9365137694747e-008 
	 1.01969185926063e-019 ,	 3.9365290699627e-008 
	 -2.05571953521733e-019 ,	 3.9365810473066e-008 
	 2.08345702713062e-018 ,	 3.9367521596025e-008 
	 1.39136466281351e-017 ,	 3.93729016075591e-008 
	 -3.99077424152684e-017 ,	 3.93886461294401e-008 
	 -1.50179756795404e-016 ,	 3.94293022665918e-008 
	 -4.40473791936291e-017 ,	 3.94491933669817e-008 
END
CITIFILE A.01.01
NAME PortSet9/TwoP0_Dsolver_data/first_odd_mode_is_1/most_even_mode_is_1/PMLG4/LS0

VAR freq MAG 13

DATA GAMMA_8[1] RI
DATA Z0_8[1,1] RI
DATA LAMBADAI_8[1,1] RI
DATA Zcir_8[1,1] RI
DATA Ycir_8[1,1] RI

VAR_LIST_BEGIN
	 9244492.989
	 9336937.919
	 9429382.849
	 9521827.779
	 19043655.56
	 38087311.11
	 76174622.23
	 152349244.5
	 304698488.9
	 609396977.8
	 1218793956
	 2437587911
	 3000000000
VAR_LIST_END

BEGIN
	-0,	 0.3265339431
	-0,	 0.3297992831
	-0,	 0.3330646231
	-0,	 0.3363299631
	-0,	 0.6726600936
	-0,	 1.345321418
	-0,	 2.690651273
	-0,	 5.381362175
	-0,	 10.76313393
	-0,	 21.52900881
	-0,	 43.07572131
	-0,	 86.26025223
	-0,	 106.2398611
END
BEGIN
	 53.800318362998929 ,	 0 
	 53.800318336085645 ,	 0 
	 53.800318308939694 ,	 0 
	 53.800318281552343 ,	 0 
	 53.80031466257315 ,	 0 
	 53.800303742907609 ,	 0 
	 53.800263332841809 ,	 0 
	 53.800149109454992 ,	 0 
	 53.799857979781365 ,	 0 
	 53.799356040000966 ,	 0 
	 53.799962486206333 ,	 0 
	 53.812368054497377 ,	 0 
	 53.824359648984242 ,	 0 
END
BEGIN
	 0,	 0.3265339431
	 0,	 0.3297992831
	 0,	 0.3330646231
	 0,	 0.3363299631
	 0,	 0.6726600936
	 0,	 1.345321418
	 0,	 2.690651273
	 0,	 5.381362175
	 0,	 10.76313393
	 0,	 21.52900881
	 0,	 43.07572131
	 0,	 86.26025223
	 0,	 106.2398611
END
BEGIN
	 2.0788147498483e-023 ,	 8.02822590695952e-010 
	 1.58969206270572e-023 ,	 8.02822591627149e-010 
	 -2.86354766385514e-023 ,	 8.02822592566508e-010 
	 3.55451994747077e-023 ,	 8.02822593513767e-010 
	 -1.69222968041439e-022 ,	 8.02822739269402e-010 
	 -7.04014037101657e-022 ,	 8.02823310839528e-010 
	 -2.07958415150632e-021 ,	 8.02825225237572e-010 
	 4.19246615914834e-021 ,	 8.0283241662306e-010 
	 -4.24898844278389e-020 ,	 8.02858624412935e-010 
	 -2.83748691835086e-019 ,	 8.02953361076836e-010 
	 8.13879013887745e-019 ,	 8.03292557534827e-010 
	 3.06418052974066e-018 ,	 8.04492581987238e-010 
	 8.99117727753078e-019 ,	 8.05257196935399e-010 
END
BEGIN
	 -1.01931250985202e-021 ,	 3.93650809889581e-008 
	 -7.79479272055305e-022 ,	 3.93650810740021e-008 
	 1.40409334809841e-021 ,	 3.93650811597868e-008 
	 -1.74290020801992e-021 ,	 3.93650812463121e-008 
	 8.29757014277712e-021 ,	 3.93650936891325e-008 
	 3.45201853700047e-020 ,	 3.9365137694747e-008 
	 1.01969185926063e-019 ,	 3.9365290699627e-008 
	 -2.05571953521733e-019 ,	 3.9365810473066e-008 
	 2.08345702713062e-018 ,	 3.9367521596025e-008 
	 1.39136466281351e-017 ,	 3.93729016075591e-008 
	 -3.99077424152684e-017 ,	 3.93886461294401e-008 
	 -1.50179756795404e-016 ,	 3.94293022665918e-008 
	 -4.40473791936291e-017 ,	 3.94491933669817e-008 
END
CITIFILE A.01.01
NAME PortSet10/TwoP0_Dsolver_data/first_odd_mode_is_1/most_even_mode_is_1/PMLG4/LS0

VAR freq MAG 13

DATA GAMMA_10[1] RI
DATA Z0_10[1,1] RI
DATA LAMBADAI_10[1,1] RI
DATA Zcir_10[1,1] RI
DATA Ycir_10[1,1] RI

VAR_LIST_BEGIN
	 9244492.989
	 9336937.919
	 9429382.849
	 9521827.779
